Freq.	V(out)
1.00000000000000e+00	(-5.09134293746513e+00dB,1.45845252613048e+02°)
1.00076782298960e+00	(-5.07941443560836e+00dB,1.45828867166119e+02°)
1.00153623553134e+00	(-5.06748754480000e+00dB,1.45812469298790e+02°)
1.00230523807790e+00	(-5.05556226704603e+00dB,1.45796059018939e+02°)
1.00307483108229e+00	(-5.04363860339278e+00dB,1.45779636324445e+02°)
1.00384501499789e+00	(-5.03171655593868e+00dB,1.45763201223056e+02°)
1.00461579027839e+00	(-5.01979612627785e+00dB,1.45746753718602e+02°)
1.00538715737789e+00	(-5.00787731586691e+00dB,1.45730293812087e+02°)
1.00615911675077e+00	(-4.99596012674248e+00dB,1.45713821511934e+02°)
1.00693166885180e+00	(-4.98404455999178e+00dB,1.45697336815716e+02°)
1.00770481413610e+00	(-4.97213061762754e+00dB,1.45680839730452e+02°)
1.00847855305913e+00	(-4.96021830145853e+00dB,1.45664330263302e+02°)
1.00925288607668e+00	(-4.94830761278954e+00dB,1.45647808413105e+02°)
1.01002781364493e+00	(-4.93639855344010e+00dB,1.45631274185471e+02°)
1.01080333622038e+00	(-4.92449112490203e+00dB,1.45614727583164e+02°)
1.01157945425990e+00	(-4.91258532888981e+00dB,1.45598168610761e+02°)
1.01235616822069e+00	(-4.90068116724812e+00dB,1.45581597273275e+02°)
1.01313347856031e+00	(-4.88877864120918e+00dB,1.45565013570628e+02°)
1.01391138573668e+00	(-4.87687775292300e+00dB,1.45548417512056e+02°)
1.01468989020806e+00	(-4.86497850362001e+00dB,1.45531809097780e+02°)
1.01546899243308e+00	(-4.85308089503157e+00dB,1.45515188331221e+02°)
1.01624869287070e+00	(-4.84118492909168e+00dB,1.45498555220324e+02°)
1.01702899198023e+00	(-4.82929060713029e+00dB,1.45481909765293e+02°)
1.01780989022136e+00	(-4.81739793094205e+00dB,1.45465251971440e+02°)
1.01859138805412e+00	(-4.80550690208156e+00dB,1.45448581841773e+02°)
1.01937348593887e+00	(-4.79361752226641e+00dB,1.45431899381338e+02°)
1.02015618433636e+00	(-4.78172979316693e+00dB,1.45415204593770e+02°)
1.02093948370768e+00	(-4.76984371630479e+00dB,1.45398497481764e+02°)
1.02172338451426e+00	(-4.75795929351670e+00dB,1.45381778051981e+02°)
1.02250788721790e+00	(-4.74607652628677e+00dB,1.45365046305805e+02°)
1.02329299228075e+00	(-4.73419541628427e+00dB,1.45348302248300e+02°)
1.02407870016532e+00	(-4.72231596522666e+00dB,1.45331545883562e+02°)
1.02486501133447e+00	(-4.71043817473375e+00dB,1.45314777215395e+02°)
1.02565192625141e+00	(-4.69856204642348e+00dB,1.45297996247747e+02°)
1.02643944537971e+00	(-4.68668758214775e+00dB,1.45281202987109e+02°)
1.02722756918330e+00	(-4.67481478303669e+00dB,1.45264397431225e+02°)
1.02801629812647e+00	(-4.66294365125266e+00dB,1.45247579590650e+02°)
1.02880563267386e+00	(-4.65107418815145e+00dB,1.45230749464980e+02°)
1.02959557329045e+00	(-4.63920639569393e+00dB,1.45213907063325e+02°)
1.03038612044162e+00	(-4.62734027503637e+00dB,1.45197052383877e+02°)
1.03117727459306e+00	(-4.61547582818900e+00dB,1.45180185434041e+02°)
1.03196903621084e+00	(-4.60361305693024e+00dB,1.45163306219805e+02°)
1.03276140576140e+00	(-4.59175196249989e+00dB,1.45146414741125e+02°)
1.03355438371151e+00	(-4.57989254675526e+00dB,1.45129511004753e+02°)
1.03434797052833e+00	(-4.56803481139814e+00dB,1.45112595013966e+02°)
1.03514216667934e+00	(-4.55617875796945e+00dB,1.45095666773770e+02°)
1.03593697263242e+00	(-4.54432438800448e+00dB,1.45078726285897e+02°)
1.03673238885579e+00	(-4.53247170339296e+00dB,1.45061773557439e+02°)
1.03752841581801e+00	(-4.52062070560992e+00dB,1.45044808590663e+02°)
1.03832505398804e+00	(-4.50877139647814e+00dB,1.45027831392356e+02°)
1.03912230383517e+00	(-4.49692377744352e+00dB,1.45010841963466e+02°)
1.03992016582906e+00	(-4.48507785018402e+00dB,1.44993840309139e+02°)
1.04071864043973e+00	(-4.47323361649605e+00dB,1.44976826435795e+02°)
1.04151772813757e+00	(-4.46139107781719e+00dB,1.44959800344818e+02°)
1.04231742939330e+00	(-4.44955023609134e+00dB,1.44942762043892e+02°)
1.04311774467805e+00	(-4.43771109270689e+00dB,1.44925711534883e+02°)
1.04391867446328e+00	(-4.42587364929606e+00dB,1.44908648821217e+02°)
1.04472021922080e+00	(-4.41403790753345e+00dB,1.44891573907943e+02°)
1.04552237942282e+00	(-4.40220386922184e+00dB,1.44874486801327e+02°)
1.04632515554188e+00	(-4.39037153586663e+00dB,1.44857387503210e+02°)
1.04712854805090e+00	(-4.37854090912854e+00dB,1.44840276019915e+02°)
1.04793255742316e+00	(-4.36671199060978e+00dB,1.44823152353931e+02°)
1.04873718413230e+00	(-4.35488478211378e+00dB,1.44806016511156e+02°)
1.04954242865232e+00	(-4.34305928511445e+00dB,1.44788868495765e+02°)
1.05034829145760e+00	(-4.33123550139442e+00dB,1.44771708312303e+02°)
1.05115477302287e+00	(-4.31941343247782e+00dB,1.44754535964118e+02°)
1.05196187382322e+00	(-4.30759307996678e+00dB,1.44737351455161e+02°)
1.05276959433413e+00	(-4.29577444577671e+00dB,1.44720154793067e+02°)
1.05357793503141e+00	(-4.28395753119587e+00dB,1.44702945978460e+02°)
1.05438689639126e+00	(-4.27214233801608e+00dB,1.44685725017277e+02°)
1.05519647889024e+00	(-4.26032886803532e+00dB,1.44668491915533e+02°)
1.05600668300528e+00	(-4.24851712248241e+00dB,1.44651246673677e+02°)
1.05681750921366e+00	(-4.23670710359655e+00dB,1.44633989301731e+02°)
1.05762895799304e+00	(-4.22489881246943e+00dB,1.44616719799362e+02°)
1.05844102982146e+00	(-4.21309225117366e+00dB,1.44599438175091e+02°)
1.05925372517729e+00	(-4.20128742097581e+00dB,1.44582144429682e+02°)
1.06006704453930e+00	(-4.18948432376133e+00dB,1.44564838570260e+02°)
1.06088098838661e+00	(-4.17768296112779e+00dB,1.44547520600430e+02°)
1.06169555719873e+00	(-4.16588333475279e+00dB,1.44530190526021e+02°)
1.06251075145550e+00	(-4.15408544597120e+00dB,1.44512848347976e+02°)
1.06332657163716e+00	(-4.14228929690830e+00dB,1.44495494076031e+02°)
1.06414301822432e+00	(-4.13049488869543e+00dB,1.44478127709024e+02°)
1.06496009169793e+00	(-4.11870222338199e+00dB,1.44460749255612e+02°)
1.06577779253934e+00	(-4.10691130258551e+00dB,1.44443358721640e+02°)
1.06659612123026e+00	(-4.09512212759513e+00dB,1.44425956107217e+02°)
1.06741507825276e+00	(-4.08333470045605e+00dB,1.44408541421332e+02°)
1.06823466408928e+00	(-4.07154902250747e+00dB,1.44391114664916e+02°)
1.06905487922266e+00	(-4.05976509558765e+00dB,1.44373675845682e+02°)
1.06987572413607e+00	(-4.04798292116520e+00dB,1.44356224965825e+02°)
1.07069719931308e+00	(-4.03620250113007e+00dB,1.44338762033021e+02°)
1.07151930523761e+00	(-4.02442383687265e+00dB,1.44321287049245e+02°)
1.07234204239397e+00	(-4.01264692996255e+00dB,1.44303800019012e+02°)
1.07316541126683e+00	(-4.00087178235643e+00dB,1.44286300949994e+02°)
1.07398941234125e+00	(-3.98909839551206e+00dB,1.44268789844191e+02°)
1.07481404610263e+00	(-3.97732677103022e+00dB,1.44251266707917e+02°)
1.07563931303677e+00	(-3.96555691084650e+00dB,1.44233731547624e+02°)
1.07646521362984e+00	(-3.95378881612268e+00dB,1.44216184362999e+02°)
1.07729174836836e+00	(-3.94202248868302e+00dB,1.44198625161243e+02°)
1.07811891773927e+00	(-3.93025793036623e+00dB,1.44181053949578e+02°)
1.07894672222983e+00	(-3.91849514256280e+00dB,1.44163470730184e+02°)
1.07977516232771e+00	(-3.90673412692903e+00dB,1.44145875508130e+02°)
1.08060423852094e+00	(-3.89497488526195e+00dB,1.44128268289531e+02°)
1.08143395129794e+00	(-3.88321741904297e+00dB,1.44110649078078e+02°)
1.08226430114748e+00	(-3.87146172995245e+00dB,1.44093017879038e+02°)
1.08309528855872e+00	(-3.85970781975293e+00dB,1.44075374698188e+02°)
1.08392691402120e+00	(-3.84795568970897e+00dB,1.44057719537368e+02°)
1.08475917802484e+00	(-3.83620534197670e+00dB,1.44040052406294e+02°)
1.08559208105990e+00	(-3.82445677784177e+00dB,1.44022373306114e+02°)
1.08642562361707e+00	(-3.81270999902466e+00dB,1.44004682243216e+02°)
1.08725980618737e+00	(-3.80096500706920e+00dB,1.43986979221734e+02°)
1.08809462926223e+00	(-3.78922180382121e+00dB,1.43969264248448e+02°)
1.08893009333343e+00	(-3.77748039067029e+00dB,1.43951537326042e+02°)
1.08976619889316e+00	(-3.76574076928989e+00dB,1.43933798459138e+02°)
1.09060294643396e+00	(-3.75400294137189e+00dB,1.43916047654756e+02°)
1.09144033644876e+00	(-3.74226690877920e+00dB,1.43898284919178e+02°)
1.09227836943086e+00	(-3.73053267280369e+00dB,1.43880510254387e+02°)
1.09311704587395e+00	(-3.71880023494328e+00dB,1.43862723663873e+02°)
1.09395636627210e+00	(-3.70706959755416e+00dB,1.43844925160549e+02°)
1.09479633111974e+00	(-3.69534076142928e+00dB,1.43827114740408e+02°)
1.09563694091170e+00	(-3.68361372856139e+00dB,1.43809292412762e+02°)
1.09647819614319e+00	(-3.67188850058863e+00dB,1.43791458181609e+02°)
1.09732009730978e+00	(-3.66016507933726e+00dB,1.43773612055648e+02°)
1.09816264490744e+00	(-3.64844346606354e+00dB,1.43755754035398e+02°)
1.09900583943252e+00	(-3.63672366257590e+00dB,1.43737884127477e+02°)
1.09984968138174e+00	(-3.62500567045720e+00dB,1.43720002337322e+02°)
1.10069417125221e+00	(-3.61328949141825e+00dB,1.43702108670634e+02°)
1.10153930954142e+00	(-3.60157512707877e+00dB,1.43684203132073e+02°)
1.10238509674723e+00	(-3.58986257895696e+00dB,1.43666285726110e+02°)
1.10323153336790e+00	(-3.57815184858427e+00dB,1.43648356457250e+02°)
1.10407861990207e+00	(-3.56644293781654e+00dB,1.43630415332426e+02°)
1.10492635684876e+00	(-3.55473584823810e+00dB,1.43612462356849e+02°)
1.10577474470736e+00	(-3.54303058147477e+00dB,1.43594497535622e+02°)
1.10662378397767e+00	(-3.53132713901488e+00dB,1.43576520872276e+02°)
1.10747347515984e+00	(-3.51962552269563e+00dB,1.43558532374963e+02°)
1.10832381875444e+00	(-3.50792573399299e+00dB,1.43540532046681e+02°)
1.10917481526240e+00	(-3.49622777456256e+00dB,1.43522519893536e+02°)
1.11002646518505e+00	(-3.48453164587602e+00dB,1.43504495919516e+02°)
1.11087876902408e+00	(-3.47283734991384e+00dB,1.43486460132417e+02°)
1.11173172728159e+00	(-3.46114488801220e+00dB,1.43468412535521e+02°)
1.11258534046007e+00	(-3.44945426183744e+00dB,1.43450353135235e+02°)
1.11343960906236e+00	(-3.43776547309735e+00dB,1.43432281936303e+02°)
1.11429453359173e+00	(-3.42607852331394e+00dB,1.43414198943697e+02°)
1.11515011455181e+00	(-3.41439341431003e+00dB,1.43396104164853e+02°)
1.11600635244662e+00	(-3.40271014743622e+00dB,1.43377997602680e+02°)
1.11686324778056e+00	(-3.39102872423227e+00dB,1.43359879261566e+02°)
1.11772080105845e+00	(-3.37934914667606e+00dB,1.43341749150745e+02°)
1.11857901278545e+00	(-3.36767141635784e+00dB,1.43323607274518e+02°)
1.11943788346715e+00	(-3.35599553460067e+00dB,1.43305453636295e+02°)
1.12029741360951e+00	(-3.34432150321227e+00dB,1.43287288243320e+02°)
1.12115760371887e+00	(-3.33264932378009e+00dB,1.43269111100176e+02°)
1.12201845430196e+00	(-3.32097899799486e+00dB,1.43250922213313e+02°)
1.12287996586593e+00	(-3.30931052724474e+00dB,1.43232721585418e+02°)
1.12374213891829e+00	(-3.29764391350997e+00dB,1.43214509227012e+02°)
1.12460497396693e+00	(-3.28597915809052e+00dB,1.43196285139103e+02°)
1.12546847152016e+00	(-3.27431626251865e+00dB,1.43178049327737e+02°)
1.12633263208666e+00	(-3.26265522870604e+00dB,1.43159801799445e+02°)
1.12719745617551e+00	(-3.25099605835322e+00dB,1.43141542562625e+02°)
1.12806294429618e+00	(-3.23933875273092e+00dB,1.43123271618030e+02°)
1.12892909695853e+00	(-3.22768331358013e+00dB,1.43104988973270e+02°)
1.12979591467280e+00	(-3.21602974251458e+00dB,1.43086694633633e+02°)
1.13066339794964e+00	(-3.20437804128674e+00dB,1.43068388606060e+02°)
1.13153154730008e+00	(-3.19272821134806e+00dB,1.43050070894537e+02°)
1.13240036323556e+00	(-3.18108025412454e+00dB,1.43031741503266e+02°)
1.13326984626788e+00	(-3.16943417170133e+00dB,1.43013400442289e+02°)
1.13413999690927e+00	(-3.15778996536021e+00dB,1.42995047713666e+02°)
1.13501081567232e+00	(-3.14614763669536e+00dB,1.42976683323262e+02°)
1.13588230307003e+00	(-3.13450718747505e+00dB,1.42958307278398e+02°)
1.13675445961581e+00	(-3.12286861928592e+00dB,1.42939919584372e+02°)
1.13762728582343e+00	(-3.11123193361559e+00dB,1.42921520245557e+02°)
1.13850078220708e+00	(-3.09959713214433e+00dB,1.42903109269186e+02°)
1.13937494928134e+00	(-3.08796421653373e+00dB,1.42884686660414e+02°)
1.14024978756117e+00	(-3.07633318832913e+00dB,1.42866252425054e+02°)
1.14112529756195e+00	(-3.06470404911229e+00dB,1.42847806568065e+02°)
1.14200147979943e+00	(-3.05307680043938e+00dB,1.42829349095360e+02°)
1.14287833478977e+00	(-3.04145144398428e+00dB,1.42810880013080e+02°)
1.14375586304954e+00	(-3.02982798141226e+00dB,1.42792399327476e+02°)
1.14463406509568e+00	(-3.01820641447043e+00dB,1.42773907045942e+02°)
1.14551294144554e+00	(-3.00658674426528e+00dB,1.42755403169522e+02°)
1.14639249261686e+00	(-2.99496897281572e+00dB,1.42736887708100e+02°)
1.14727271912780e+00	(-2.98335310169818e+00dB,1.42718360667176e+02°)
1.14815362149688e+00	(-2.97173913217399e+00dB,1.42699822048739e+02°)
1.14903520024306e+00	(-2.96012706636158e+00dB,1.42681271864575e+02°)
1.14991745588567e+00	(-2.94851690535268e+00dB,1.42662710115462e+02°)
1.15080038894444e+00	(-2.93690865113745e+00dB,1.42644136810270e+02°)
1.15168399993951e+00	(-2.92530230505219e+00dB,1.42625551953121e+02°)
1.15256828939142e+00	(-2.91369786886376e+00dB,1.42606955551928e+02°)
1.15345325782109e+00	(-2.90209534411317e+00dB,1.42588347611395e+02°)
1.15433890574988e+00	(-2.89049473242242e+00dB,1.42569728137360e+02°)
1.15522523369950e+00	(-2.87889603528985e+00dB,1.42551097135620e+02°)
1.15611224219210e+00	(-2.86729925439093e+00dB,1.42532454612609e+02°)
1.15699993175021e+00	(-2.85570439115962e+00dB,1.42513800572397e+02°)
1.15788830289678e+00	(-2.84411144756640e+00dB,1.42495135025167e+02°)
1.15877735615513e+00	(-2.83252042480381e+00dB,1.42476457972696e+02°)
1.15966709204901e+00	(-2.82093132480534e+00dB,1.42457769424743e+02°)
1.16055751110257e+00	(-2.80934414903854e+00dB,1.42439069385473e+02°)
1.16144861384035e+00	(-2.79775889879535e+00dB,1.42420357858570e+02°)
1.16234040078729e+00	(-2.78617557597883e+00dB,1.42401634852673e+02°)
1.16323287246875e+00	(-2.77459418214597e+00dB,1.42382900373878e+02°)
1.16412602941049e+00	(-2.76301471903832e+00dB,1.42364154429575e+02°)
1.16501987213867e+00	(-2.75143718795364e+00dB,1.42345397022960e+02°)
1.16591440117983e+00	(-2.73986159056216e+00dB,1.42326628161196e+02°)
1.16680961706097e+00	(-2.72828792843439e+00dB,1.42307847849843e+02°)
1.16770552030943e+00	(-2.71671620329167e+00dB,1.42289056096637e+02°)
1.16860211145301e+00	(-2.70514641652714e+00dB,1.42270252906004e+02°)
1.16949939101987e+00	(-2.69357857001547e+00dB,1.42251438285735e+02°)
1.17039735953862e+00	(-2.68201266498473e+00dB,1.42232612240505e+02°)
1.17129601753824e+00	(-2.67044870331420e+00dB,1.42213774777479e+02°)
1.17219536554813e+00	(-2.65888668644815e+00dB,1.42194925902508e+02°)
1.17309540409810e+00	(-2.64732661582024e+00dB,1.42176065620847e+02°)
1.17399613371836e+00	(-2.63576849349022e+00dB,1.42157193941762e+02°)
1.17489755493953e+00	(-2.62421232053180e+00dB,1.42138310868175e+02°)
1.17579966829264e+00	(-2.61265809873941e+00dB,1.42119416407247e+02°)
1.17670247430912e+00	(-2.60110582972481e+00dB,1.42100510565700e+02°)
1.17760597352081e+00	(-2.58955551487230e+00dB,1.42081593348627e+02°)
1.17851016645997e+00	(-2.57800715624333e+00dB,1.42062664766245e+02°)
1.17941505365925e+00	(-2.56646075479927e+00dB,1.42043724819533e+02°)
1.18032063565173e+00	(-2.55491631249381e+00dB,1.42024773517944e+02°)
1.18122691297089e+00	(-2.54337383085232e+00dB,1.42005810867498e+02°)
1.18213388615060e+00	(-2.53183331134467e+00dB,1.41986836873137e+02°)
1.18304155572517e+00	(-2.52029475554781e+00dB,1.41967851542151e+02°)
1.18394992222931e+00	(-2.50875816516180e+00dB,1.41948854881238e+02°)
1.18485898619813e+00	(-2.49722354164346e+00dB,1.41929846895580e+02°)
1.18576874816716e+00	(-2.48569088672057e+00dB,1.41910827593956e+02°)
1.18667920867236e+00	(-2.47416020166179e+00dB,1.41891796979102e+02°)
1.18759036825005e+00	(-2.46263148846710e+00dB,1.41872755062013e+02°)
1.18850222743702e+00	(-2.45110474834159e+00dB,1.41853701845161e+02°)
1.18941478677044e+00	(-2.43957998299265e+00dB,1.41834637336224e+02°)
1.19032804678789e+00	(-2.42805719410886e+00dB,1.41815561543014e+02°)
1.19124200802738e+00	(-2.41653638303143e+00dB,1.41796474470285e+02°)
1.19215667102732e+00	(-2.40501755140744e+00dB,1.41777376124765e+02°)
1.19307203632654e+00	(-2.39350070107373e+00dB,1.41758266515737e+02°)
1.19398810446428e+00	(-2.38198583294060e+00dB,1.41739145643363e+02°)
1.19490487598019e+00	(-2.37047294923381e+00dB,1.41720013519896e+02°)
1.19582235141435e+00	(-2.35896205117374e+00dB,1.41700870149580e+02°)
1.19674053130725e+00	(-2.34745314049068e+00dB,1.41681715540341e+02°)
1.19765941619977e+00	(-2.33594621852333e+00dB,1.41662549695920e+02°)
1.19857900663324e+00	(-2.32444128714536e+00dB,1.41643372626367e+02°)
1.19949930314938e+00	(-2.31293834778779e+00dB,1.41624184337123e+02°)
1.20042030629035e+00	(-2.30143740177733e+00dB,1.41604984832843e+02°)
1.20134201659870e+00	(-2.28993845100658e+00dB,1.41585774122209e+02°)
1.20226443461742e+00	(-2.27844149681618e+00dB,1.41566552210593e+02°)
1.20318756088989e+00	(-2.26694654081338e+00dB,1.41547319104789e+02°)
1.20411139595995e+00	(-2.25545358470745e+00dB,1.41528074813172e+02°)
1.20503594037180e+00	(-2.24396262986109e+00dB,1.41508819340446e+02°)
1.20596119467011e+00	(-2.23247367784142e+00dB,1.41489552693748e+02°)
1.20688715939995e+00	(-2.22098673030059e+00dB,1.41470274879806e+02°)
1.20781383510678e+00	(-2.20950178892030e+00dB,1.41450985907297e+02°)
1.20874122233654e+00	(-2.19801885476909e+00dB,1.41431685777847e+02°)
1.20966932163552e+00	(-2.18653793002584e+00dB,1.41412374505159e+02°)
1.21059813355049e+00	(-2.17505901565423e+00dB,1.41393052088764e+02°)
1.21152765862859e+00	(-2.16358211359681e+00dB,1.41373718540242e+02°)
1.21245789741742e+00	(-2.15210722539704e+00dB,1.41354373866442e+02°)
1.21338885046498e+00	(-2.14063435231750e+00dB,1.41335018070275e+02°)
1.21432051831969e+00	(-2.12916349630157e+00dB,1.41315651164084e+02°)
1.21525290153040e+00	(-2.11769465842443e+00dB,1.41296273148443e+02°)
1.21618600064637e+00	(-2.10622784049203e+00dB,1.41276884033762e+02°)
1.21711981621730e+00	(-2.09476304405272e+00dB,1.41257483826386e+02°)
1.21805434879329e+00	(-2.08330027074754e+00dB,1.41238072534248e+02°)
1.21898959892487e+00	(-2.07183952191692e+00dB,1.41218650162149e+02°)
1.21992556716301e+00	(-2.06038079920315e+00dB,1.41199216718092e+02°)
1.22086225405908e+00	(-2.04892410408316e+00dB,1.41179772208273e+02°)
1.22179966016488e+00	(-2.03746943825008e+00dB,1.41160316641166e+02°)
1.22273778603264e+00	(-2.02601680301234e+00dB,1.41140850021229e+02°)
1.22367663221500e+00	(-2.01456620002925e+00dB,1.41121372356508e+02°)
1.22461619926505e+00	(-2.00311763071397e+00dB,1.41101883653015e+02°)
1.22555648773628e+00	(-1.99167109716366e+00dB,1.41082383923267e+02°)
1.22649749818262e+00	(-1.98022660017405e+00dB,1.41062873166512e+02°)
1.22743923115841e+00	(-1.96878414143979e+00dB,1.41043351391419e+02°)
1.22838168721843e+00	(-1.95734372301123e+00dB,1.41023818610154e+02°)
1.22932486691788e+00	(-1.94590534568609e+00dB,1.41004274822771e+02°)
1.23026877081239e+00	(-1.93446901162932e+00dB,1.40984720042221e+02°)
1.23121339945800e+00	(-1.92303472189607e+00dB,1.40965154270628e+02°)
1.23215875341121e+00	(-1.91160247827564e+00dB,1.40945577517630e+02°)
1.23310483322891e+00	(-1.90017228221314e+00dB,1.40925989790042e+02°)
1.23405163946845e+00	(-1.88874413535202e+00dB,1.40906391095651e+02°)
1.23499917268759e+00	(-1.87731803896579e+00dB,1.40886781438916e+02°)
1.23594743344452e+00	(-1.86589399492576e+00dB,1.40867160830465e+02°)
1.23689642229785e+00	(-1.85447200439864e+00dB,1.40847529274062e+02°)
1.23784613980664e+00	(-1.84305206918226e+00dB,1.40827886778779e+02°)
1.23879658653037e+00	(-1.83163419063332e+00dB,1.40808233351420e+02°)
1.23974776302895e+00	(-1.82021837034707e+00dB,1.40788568998869e+02°)
1.24069966986271e+00	(-1.80880460977036e+00dB,1.40768893727507e+02°)
1.24165230759242e+00	(-1.79739291062255e+00dB,1.40749207546914e+02°)
1.24260567677927e+00	(-1.78598327414865e+00dB,1.40729510461303e+02°)
1.24355977798491e+00	(-1.77457570209671e+00dB,1.40709802480146e+02°)
