Freq.	V(out)
1.00000000000000e+00	(-5.14338751263613e+00dB,1.46087201306247e+02°)
1.00076782298960e+00	(-5.13143707346013e+00dB,1.46070944496525e+02°)
1.00153623553134e+00	(-5.11948822460379e+00dB,1.46054675232219e+02°)
1.00230523807790e+00	(-5.10754096780221e+00dB,1.46038393518143e+02°)
1.00307483108229e+00	(-5.09559530474569e+00dB,1.46022099357643e+02°)
1.00384501499789e+00	(-5.08365123706551e+00dB,1.46005792754480e+02°)
1.00461579027839e+00	(-5.07170876619818e+00dB,1.45989473709820e+02°)
1.00538715737789e+00	(-5.05976789394908e+00dB,1.45973142228760e+02°)
1.00615911675077e+00	(-5.04782862198459e+00dB,1.45956798315353e+02°)
1.00693166885180e+00	(-5.03589095197087e+00dB,1.45940441973797e+02°)
1.00770481413610e+00	(-5.02395488543792e+00dB,1.45924073205454e+02°)
1.00847855305913e+00	(-5.01202042412627e+00dB,1.45907692015390e+02°)
1.00925288607668e+00	(-5.00008756953535e+00dB,1.45891298406302e+02°)
1.01002781364493e+00	(-4.98815632360065e+00dB,1.45874892384462e+02°)
1.01080333622038e+00	(-4.97622668767343e+00dB,1.45858473949946e+02°)
1.01157945425990e+00	(-4.96429866353871e+00dB,1.45842043108199e+02°)
1.01235616822069e+00	(-4.95237225290116e+00dB,1.45825599863374e+02°)
1.01313347856031e+00	(-4.94044745721368e+00dB,1.45809144217338e+02°)
1.01391138573668e+00	(-4.92852427829370e+00dB,1.45792676175812e+02°)
1.01468989020806e+00	(-4.91660271772484e+00dB,1.45776195741259e+02°)
1.01546899243308e+00	(-4.90468277711816e+00dB,1.45759702917056e+02°)
1.01624869287070e+00	(-4.89276445835056e+00dB,1.45743197709961e+02°)
1.01702899198023e+00	(-4.88084776266271e+00dB,1.45726680119098e+02°)
1.01780989022136e+00	(-4.86893269187368e+00dB,1.45710150150003e+02°)
1.01859138805412e+00	(-4.85701924771057e+00dB,1.45693607806988e+02°)
1.01937348593887e+00	(-4.84510743187626e+00dB,1.45677053094614e+02°)
1.02015618433636e+00	(-4.83319724583499e+00dB,1.45660486015128e+02°)
1.02093948370768e+00	(-4.82128869135591e+00dB,1.45643906573076e+02°)
1.02172338451426e+00	(-4.80938177009897e+00dB,1.45627314772753e+02°)
1.02250788721790e+00	(-4.79747648353146e+00dB,1.45610710615947e+02°)
1.02329299228075e+00	(-4.78557283348581e+00dB,1.45594094109093e+02°)
1.02407870016532e+00	(-4.77367082155120e+00dB,1.45577465253715e+02°)
1.02486501133447e+00	(-4.76177044932590e+00dB,1.45560824054946e+02°)
1.02565192625141e+00	(-4.74987171842450e+00dB,1.45544170515361e+02°)
1.02643944537971e+00	(-4.73797463060574e+00dB,1.45527504640515e+02°)
1.02722756918330e+00	(-4.72607918755367e+00dB,1.45510826433816e+02°)
1.02801629812647e+00	(-4.71418539078804e+00dB,1.45494135898684e+02°)
1.02880563267386e+00	(-4.70229324201771e+00dB,1.45477433039564e+02°)
1.02959557329045e+00	(-4.69040274294958e+00dB,1.45460717861041e+02°)
1.03038612044162e+00	(-4.67851389492543e+00dB,1.45443990363420e+02°)
1.03117727459306e+00	(-4.66662669998392e+00dB,1.45427250555264e+02°)
1.03196903621084e+00	(-4.65474115968071e+00dB,1.45410498438779e+02°)
1.03276140576140e+00	(-4.64285727545875e+00dB,1.45393734016830e+02°)
1.03355438371151e+00	(-4.63097504913769e+00dB,1.45376957294170e+02°)
1.03434797052833e+00	(-4.61909448222921e+00dB,1.45360168274490e+02°)
1.03514216667934e+00	(-4.60721557660943e+00dB,1.45343366963406e+02°)
1.03593697263242e+00	(-4.59533833368009e+00dB,1.45326553362795e+02°)
1.03673238885579e+00	(-4.58346275521849e+00dB,1.45309727478124e+02°)
1.03752841581801e+00	(-4.57158884283258e+00dB,1.45292889312325e+02°)
1.03832505398804e+00	(-4.55971659810105e+00dB,1.45276038869459e+02°)
1.03912230383517e+00	(-4.54784602280990e+00dB,1.45259176154486e+02°)
1.03992016582906e+00	(-4.53597711856596e+00dB,1.45242301171596e+02°)
1.04071864043973e+00	(-4.52410988702849e+00dB,1.45225413924874e+02°)
1.04151772813757e+00	(-4.51224432959466e+00dB,1.45208514415468e+02°)
1.04231742939330e+00	(-4.50038044834322e+00dB,1.45191602651781e+02°)
1.04311774467805e+00	(-4.48851824445808e+00dB,1.45174678634498e+02°)
1.04391867446328e+00	(-4.47665771992854e+00dB,1.45157742370123e+02°)
1.04472021922080e+00	(-4.46479887642230e+00dB,1.45140793863345e+02°)
1.04552237942282e+00	(-4.45294171531802e+00dB,1.45123833115218e+02°)
1.04632515554188e+00	(-4.44108623831722e+00dB,1.45106860131392e+02°)
1.04712854805090e+00	(-4.42923244731898e+00dB,1.45089874917577e+02°)
1.04793255742316e+00	(-4.41738034366168e+00dB,1.45072877475411e+02°)
1.04873718413230e+00	(-4.40552992912423e+00dB,1.45055867810563e+02°)
1.04954242865232e+00	(-4.39368120528485e+00dB,1.45038845926368e+02°)
1.05034829145760e+00	(-4.38183417394819e+00dB,1.45021811828622e+02°)
1.05115477302287e+00	(-4.36998883668616e+00dB,1.45004765520938e+02°)
1.05196187382322e+00	(-4.35814519495230e+00dB,1.44987707005088e+02°)
1.05276959433413e+00	(-4.34630325060798e+00dB,1.44970636288658e+02°)
1.05357793503141e+00	(-4.33446300532257e+00dB,1.44953553375191e+02°)
1.05438689639126e+00	(-4.32262446059581e+00dB,1.44936458268305e+02°)
1.05519647889024e+00	(-4.31078761810126e+00dB,1.44919350971782e+02°)
1.05600668300528e+00	(-4.29895247957506e+00dB,1.44902231490908e+02°)
1.05681750921366e+00	(-4.28711904652858e+00dB,1.44885099829626e+02°)
1.05762895799304e+00	(-4.27528732066063e+00dB,1.44867955991134e+02°)
1.05844102982146e+00	(-4.26345730374827e+00dB,1.44850799983392e+02°)
1.05925372517729e+00	(-4.25162899723830e+00dB,1.44833631806843e+02°)
1.06006704453930e+00	(-4.23980240273038e+00dB,1.44816451466352e+02°)
1.06088098838661e+00	(-4.22797752212092e+00dB,1.44799258968842e+02°)
1.06169555719873e+00	(-4.21615435696060e+00dB,1.44782054317144e+02°)
1.06251075145550e+00	(-4.20433290874419e+00dB,1.44764837514479e+02°)
1.06332657163716e+00	(-4.19251317917878e+00dB,1.44747608566517e+02°)
1.06414301822432e+00	(-4.18069517007185e+00dB,1.44730367478571e+02°)
1.06496009169793e+00	(-4.16887888283056e+00dB,1.44713114252980e+02°)
1.06577779253934e+00	(-4.15706431915372e+00dB,1.44695848894980e+02°)
1.06659612123026e+00	(-4.14525148084683e+00dB,1.44678571410242e+02°)
1.06741507825276e+00	(-4.13344036945458e+00dB,1.44661281802474e+02°)
1.06823466408928e+00	(-4.12163098649024e+00dB,1.44643980074836e+02°)
1.06905487922266e+00	(-4.10982333379506e+00dB,1.44626666233998e+02°)
1.06987572413607e+00	(-4.09801741283602e+00dB,1.44609340282751e+02°)
1.07069719931308e+00	(-4.08621322540756e+00dB,1.44592002227389e+02°)
1.07151930523761e+00	(-4.07441077313002e+00dB,1.44574652071038e+02°)
1.07234204239397e+00	(-4.06261005744463e+00dB,1.44557289817786e+02°)
1.07316541126683e+00	(-4.05081108008047e+00dB,1.44539915472126e+02°)
1.07398941234125e+00	(-4.03901384281708e+00dB,1.44522529040052e+02°)
1.07481404610263e+00	(-4.02721834722333e+00dB,1.44505130526212e+02°)
1.07563931303677e+00	(-4.01542459509284e+00dB,1.44487719935938e+02°)
1.07646521362984e+00	(-4.00363258770735e+00dB,1.44470297270579e+02°)
1.07729174836836e+00	(-3.99184232686892e+00dB,1.44452862536473e+02°)
1.07811891773927e+00	(-3.98005381432927e+00dB,1.44435415738672e+02°)
1.07894672222983e+00	(-3.96826705158687e+00dB,1.44417956881914e+02°)
1.07977516232771e+00	(-3.95648204040692e+00dB,1.44400485970597e+02°)
1.08060423852094e+00	(-3.94469878234958e+00dB,1.44383003009391e+02°)
1.08143395129794e+00	(-3.93291727899344e+00dB,1.44365508002185e+02°)
1.08226430114748e+00	(-3.92113753207587e+00dB,1.44348000954650e+02°)
1.08309528855872e+00	(-3.90935954308769e+00dB,1.44330481870505e+02°)
1.08392691402120e+00	(-3.89758331396231e+00dB,1.44312950756316e+02°)
1.08475917802484e+00	(-3.88580884600732e+00dB,1.44295407614478e+02°)
1.08559208105990e+00	(-3.87403614108536e+00dB,1.44277852452104e+02°)
1.08642562361707e+00	(-3.86226520064500e+00dB,1.44260285271148e+02°)
1.08725980618737e+00	(-3.85049602649807e+00dB,1.44242706079172e+02°)
1.08809462926223e+00	(-3.83872862020800e+00dB,1.44225114879407e+02°)
1.08893009333343e+00	(-3.82696298341573e+00dB,1.44207511677231e+02°)
1.08976619889316e+00	(-3.81519911762690e+00dB,1.44189896475576e+02°)
1.09060294643396e+00	(-3.80343702479625e+00dB,1.44172269283321e+02°)
1.09144033644876e+00	(-3.79167670627636e+00dB,1.44154630101949e+02°)
1.09227836943086e+00	(-3.77991816364413e+00dB,1.44136978935178e+02°)
1.09311704587395e+00	(-3.76816139887686e+00dB,1.44119315792076e+02°)
1.09395636627210e+00	(-3.75640641331137e+00dB,1.44101640674531e+02°)
1.09479633111974e+00	(-3.74465320869903e+00dB,1.44083953588124e+02°)
1.09563694091170e+00	(-3.73290178657477e+00dB,1.44066254537191e+02°)
1.09647819614319e+00	(-3.72115214872555e+00dB,1.44048543528134e+02°)
1.09732009730978e+00	(-3.70940429679077e+00dB,1.44030820565785e+02°)
1.09816264490744e+00	(-3.69765823216877e+00dB,1.44013085652287e+02°)
1.09900583943252e+00	(-3.68591395667603e+00dB,1.43995338794991e+02°)
1.09984968138174e+00	(-3.67417147184076e+00dB,1.43977579997995e+02°)
1.10069417125221e+00	(-3.66243077951606e+00dB,1.43959809268661e+02°)
1.10153930954142e+00	(-3.65069188110845e+00dB,1.43942026608725e+02°)
1.10238509674723e+00	(-3.63895477819519e+00dB,1.43924232023148e+02°)
1.10323153336790e+00	(-3.62721947270641e+00dB,1.43906425519996e+02°)
1.10407861990207e+00	(-3.61548596599227e+00dB,1.43888607101590e+02°)
1.10492635684876e+00	(-3.60375425975573e+00dB,1.43870776773366e+02°)
1.10577474470736e+00	(-3.59202435575780e+00dB,1.43852934542135e+02°)
1.10662378397767e+00	(-3.58029625546464e+00dB,1.43835080410753e+02°)
1.10747347515984e+00	(-3.56856996067142e+00dB,1.43817214386837e+02°)
1.10832381875444e+00	(-3.55684547271286e+00dB,1.43799336470967e+02°)
1.10917481526240e+00	(-3.54512279337158e+00dB,1.43781446671013e+02°)
1.11002646518505e+00	(-3.53340192454668e+00dB,1.43763544995138e+02°)
1.11087876902408e+00	(-3.52168286757318e+00dB,1.43745631444224e+02°)
1.11173172728159e+00	(-3.50996562399124e+00dB,1.43727706023705e+02°)
1.11258534046007e+00	(-3.49825019567321e+00dB,1.43709768740600e+02°)
1.11343960906236e+00	(-3.48653658404620e+00dB,1.43691819597979e+02°)
1.11429453359173e+00	(-3.47482479086546e+00dB,1.43673858602834e+02°)
1.11515011455181e+00	(-3.46311481771402e+00dB,1.43655885759220e+02°)
1.11600635244662e+00	(-3.45140666614938e+00dB,1.43637901071414e+02°)
1.11686324778056e+00	(-3.43970033807259e+00dB,1.43619904549046e+02°)
1.11772080105845e+00	(-3.42799583457576e+00dB,1.43601896190375e+02°)
1.11857901278545e+00	(-3.41629315792750e+00dB,1.43583876008033e+02°)
1.11943788346715e+00	(-3.40459230931693e+00dB,1.43565844002309e+02°)
1.12029741360951e+00	(-3.39289329053728e+00dB,1.43547800179867e+02°)
1.12115760371887e+00	(-3.38119610302204e+00dB,1.43529744545380e+02°)
1.12201845430196e+00	(-3.36950074853332e+00dB,1.43511677104305e+02°)
1.12287996586593e+00	(-3.35780722883340e+00dB,1.43493597863715e+02°)
1.12374213891829e+00	(-3.34611554527284e+00dB,1.43475506825902e+02°)
1.12460497396693e+00	(-3.33442569957206e+00dB,1.43457403998321e+02°)
1.12546847152016e+00	(-3.32273769341882e+00dB,1.43439289385617e+02°)
1.12633263208666e+00	(-3.31105152830810e+00dB,1.43421162992706e+02°)
1.12719745617551e+00	(-3.29936720606861e+00dB,1.43403024826762e+02°)
1.12806294429618e+00	(-3.28768472811781e+00dB,1.43384874890976e+02°)
1.12892909695853e+00	(-3.27600409617799e+00dB,1.43366713191695e+02°)
1.12979591467280e+00	(-3.26432531190838e+00dB,1.43348539735652e+02°)
1.13066339794964e+00	(-3.25264837663320e+00dB,1.43330354523746e+02°)
1.13153154730008e+00	(-3.24097329228054e+00dB,1.43312157566105e+02°)
1.13240036323556e+00	(-3.22930006058004e+00dB,1.43293948867849e+02°)
1.13326984626788e+00	(-3.21762868277805e+00dB,1.43275728432043e+02°)
1.13413999690927e+00	(-3.20595916066230e+00dB,1.43257496265209e+02°)
1.13501081567232e+00	(-3.19429149569358e+00dB,1.43239252371046e+02°)
1.13588230307003e+00	(-3.18262568979841e+00dB,1.43220996758561e+02°)
1.13675445961581e+00	(-3.17096174441326e+00dB,1.43202729430982e+02°)
1.13762728582343e+00	(-3.15929966113991e+00dB,1.43184450393820e+02°)
1.13850078220708e+00	(-3.14763944166320e+00dB,1.43166159653752e+02°)
1.13937494928134e+00	(-3.13598108741536e+00dB,1.43147857214293e+02°)
1.14024978756117e+00	(-3.12432460031044e+00dB,1.43129543084138e+02°)
1.14112529756195e+00	(-3.11266998172882e+00dB,1.43111217265729e+02°)
1.14200147979943e+00	(-3.10101723344154e+00dB,1.43092879767126e+02°)
1.14287833478977e+00	(-3.08936635678669e+00dB,1.43074530591155e+02°)
1.14375586304954e+00	(-3.07771735365470e+00dB,1.43056169745437e+02°)
1.14463406509568e+00	(-3.06607022561173e+00dB,1.43037797236294e+02°)
1.14551294144554e+00	(-3.05442497403536e+00dB,1.43019413065866e+02°)
1.14639249261686e+00	(-3.04278160078232e+00dB,1.43001017242907e+02°)
1.14727271912780e+00	(-3.03114010744843e+00dB,1.42982609773081e+02°)
1.14815362149688e+00	(-3.01950049545911e+00dB,1.42964190659283e+02°)
1.14903520024306e+00	(-3.00786276660110e+00dB,1.42945759910087e+02°)
1.14991745588567e+00	(-2.99622692247215e+00dB,1.42927317530640e+02°)
1.15080038894444e+00	(-2.98459296462573e+00dB,1.42908863525652e+02°)
1.15168399993951e+00	(-2.97296089470655e+00dB,1.42890397902402e+02°)
1.15256828939142e+00	(-2.96133071414337e+00dB,1.42871920663434e+02°)
1.15345325782109e+00	(-2.94970242473419e+00dB,1.42853431817619e+02°)
1.15433890574988e+00	(-2.93807602806996e+00dB,1.42834931369781e+02°)
1.15522523369950e+00	(-2.92645152568016e+00dB,1.42816419325131e+02°)
1.15611224219210e+00	(-2.91482891920178e+00dB,1.42797895689883e+02°)
1.15699993175021e+00	(-2.90320821025371e+00dB,1.42779360469679e+02°)
1.15788830289678e+00	(-2.89158940038478e+00dB,1.42760813670587e+02°)
1.15877735615513e+00	(-2.87997249124063e+00dB,1.42742255298259e+02°)
1.15966709204901e+00	(-2.86835748437852e+00dB,1.42723685358135e+02°)
1.16055751110257e+00	(-2.85674438149809e+00dB,1.42705103857196e+02°)
1.16144861384035e+00	(-2.84513318410262e+00dB,1.42686510799836e+02°)
1.16234040078729e+00	(-2.83352389377656e+00dB,1.42667906192302e+02°)
1.16323287246875e+00	(-2.82191651221922e+00dB,1.42649290041780e+02°)
1.16412602941049e+00	(-2.81031104089724e+00dB,1.42630662351614e+02°)
1.16501987213867e+00	(-2.79870748151905e+00dB,1.42612023129808e+02°)
1.16591440117983e+00	(-2.78710583563184e+00dB,1.42593372381618e+02°)
1.16680961706097e+00	(-2.77550610489808e+00dB,1.42574710113955e+02°)
1.16770552030943e+00	(-2.76390829074903e+00dB,1.42556036330633e+02°)
1.16860211145301e+00	(-2.75231239502206e+00dB,1.42537351039980e+02°)
1.16949939101987e+00	(-2.74071841914010e+00dB,1.42518654246708e+02°)
1.17039735953862e+00	(-2.72912636464756e+00dB,1.42499945955712e+02°)
1.17129601753824e+00	(-2.71753623328293e+00dB,1.42481226174567e+02°)
1.17219536554813e+00	(-2.70594802655622e+00dB,1.42462494909190e+02°)
1.17309540409810e+00	(-2.69436174607970e+00dB,1.42443752165047e+02°)
1.17399613371836e+00	(-2.68277739342208e+00dB,1.42424997947890e+02°)
1.17489755493953e+00	(-2.67119497017828e+00dB,1.42406232264119e+02°)
1.17579966829264e+00	(-2.65961447803876e+00dB,1.42387455121143e+02°)
1.17670247430912e+00	(-2.64803591843677e+00dB,1.42368666522731e+02°)
1.17760597352081e+00	(-2.63645929300867e+00dB,1.42349866475978e+02°)
1.17851016645997e+00	(-2.62488460334454e+00dB,1.42331054986845e+02°)
1.17941505365925e+00	(-2.61331185100658e+00dB,1.42312232060786e+02°)
1.18032063565173e+00	(-2.60174103780292e+00dB,1.42293397707042e+02°)
1.18122691297089e+00	(-2.59017216506636e+00dB,1.42274551928797e+02°)
1.18213388615060e+00	(-2.57860523449533e+00dB,1.42255694733127e+02°)
1.18304155572517e+00	(-2.56704024743771e+00dB,1.42236826123279e+02°)
1.18394992222931e+00	(-2.55547720582756e+00dB,1.42217946110203e+02°)
1.18485898619813e+00	(-2.54391611101876e+00dB,1.42199054697239e+02°)
1.18576874816716e+00	(-2.53235696478959e+00dB,1.42180151891987e+02°)
1.18667920867236e+00	(-2.52079976849503e+00dB,1.42161237699323e+02°)
1.18759036825005e+00	(-2.50924452379662e+00dB,1.42142312125442e+02°)
1.18850222743702e+00	(-2.49769123224589e+00dB,1.42123375177160e+02°)
1.18941478677044e+00	(-2.48613989566624e+00dB,1.42104426862764e+02°)
1.19032804678789e+00	(-2.47459051530045e+00dB,1.42085467185131e+02°)
1.19124200802738e+00	(-2.46304309288182e+00dB,1.42066496151720e+02°)
1.19215667102732e+00	(-2.45149763000528e+00dB,1.42047513769343e+02°)
1.19307203632654e+00	(-2.43995412816109e+00dB,1.42028520044002e+02°)
1.19398810446428e+00	(-2.42841258894516e+00dB,1.42009514981215e+02°)
1.19490487598019e+00	(-2.41687301400690e+00dB,1.41990498588378e+02°)
1.19582235141435e+00	(-2.40533540489918e+00dB,1.41971470872034e+02°)
1.19674053130725e+00	(-2.39379976318736e+00dB,1.41952431838017e+02°)
1.19765941619977e+00	(-2.38226609025649e+00dB,1.41933381491061e+02°)
1.19857900663324e+00	(-2.37073438798610e+00dB,1.41914319840367e+02°)
1.19949930314938e+00	(-2.35920465773052e+00dB,1.41895246890235e+02°)
1.20042030629035e+00	(-2.34767690121102e+00dB,1.41876162648690e+02°)
1.20134201659870e+00	(-2.33615111990712e+00dB,1.41857067121579e+02°)
1.20226443461742e+00	(-2.32462731541251e+00dB,1.41837960314908e+02°)
1.20318756088989e+00	(-2.31310548920261e+00dB,1.41818842234653e+02°)
1.20411139595995e+00	(-2.30158564298710e+00dB,1.41799712888399e+02°)
1.20503594037180e+00	(-2.29006777836295e+00dB,1.41780572282970e+02°)
1.20596119467011e+00	(-2.27855189668657e+00dB,1.41761420423042e+02°)
1.20688715939995e+00	(-2.26703799971110e+00dB,1.41742257316800e+02°)
1.20781383510678e+00	(-2.25552608883927e+00dB,1.41723082969471e+02°)
1.20874122233654e+00	(-2.24401616578974e+00dB,1.41703897388134e+02°)
1.20966932163552e+00	(-2.23250823197104e+00dB,1.41684700578775e+02°)
1.21059813355049e+00	(-2.22100228915755e+00dB,1.41665492549644e+02°)
1.21152765862859e+00	(-2.20949833879285e+00dB,1.41646273306635e+02°)
1.21245789741742e+00	(-2.19799638222786e+00dB,1.41627042853442e+02°)
1.21338885046498e+00	(-2.18649642133224e+00dB,1.41607801200006e+02°)
1.21432051831969e+00	(-2.17499845766926e+00dB,1.41588548353787e+02°)
1.21525290153040e+00	(-2.16350249253656e+00dB,1.41569284317536e+02°)
1.21618600064637e+00	(-2.15200852765137e+00dB,1.41550009100058e+02°)
1.21711981621730e+00	(-2.14051656460045e+00dB,1.41530722708825e+02°)
1.21805434879329e+00	(-2.12902660491674e+00dB,1.41511425148912e+02°)
1.21898959892487e+00	(-2.11753865001742e+00dB,1.41492116427408e+02°)
1.21992556716301e+00	(-2.10605270169635e+00dB,1.41472796551509e+02°)
1.22086225405908e+00	(-2.09456876122718e+00dB,1.41453465526425e+02°)
1.22179966016488e+00	(-2.08308683029496e+00dB,1.41434123360007e+02°)
1.22273778603264e+00	(-2.07160691068118e+00dB,1.41414770060982e+02°)
1.22367663221500e+00	(-2.06012900353394e+00dB,1.41395405631969e+02°)
1.22461619926505e+00	(-2.04865311048930e+00dB,1.41376030081195e+02°)
1.22555648773628e+00	(-2.03717923327350e+00dB,1.41356643416442e+02°)
1.22649749818262e+00	(-2.02570737341240e+00dB,1.41337245644555e+02°)
1.22743923115841e+00	(-2.01423753233681e+00dB,1.41317836771573e+02°)
1.22838168721843e+00	(-2.00276971174352e+00dB,1.41298416804867e+02°)
1.22932486691788e+00	(-1.99130391298353e+00dB,1.41278985750308e+02°)
1.23026877081239e+00	(-1.97984013768132e+00dB,1.41259543615052e+02°)
1.23121339945800e+00	(-1.96837838735816e+00dB,1.41240090405492e+02°)
1.23215875341121e+00	(-1.95691866363427e+00dB,1.41220626129550e+02°)
1.23310483322891e+00	(-1.94546096806545e+00dB,1.41201150794176e+02°)
1.23405163946845e+00	(-1.93400530199045e+00dB,1.41181664404836e+02°)
1.23499917268759e+00	(-1.92255166713388e+00dB,1.41162166968999e+02°)
1.23594743344452e+00	(-1.91110006505482e+00dB,1.41142658495042e+02°)
1.23689642229785e+00	(-1.89965049715451e+00dB,1.41123138987545e+02°)
1.23784613980664e+00	(-1.88820296492855e+00dB,1.41103608453296e+02°)
1.23879658653037e+00	(-1.87675747016800e+00dB,1.41084066902200e+02°)
1.23974776302895e+00	(-1.86531401419799e+00dB,1.41064514338686e+02°)
1.24069966986271e+00	(-1.85387259862375e+00dB,1.41044950770386e+02°)
1.24165230759242e+00	(-1.84243322484210e+00dB,1.41025376203417e+02°)
1.24260567677927e+00	(-1.83099589464674e+00dB,1.41005790647119e+02°)
1.24355977798491e+00	(-1.81956060945303e+00dB,1.40986194106909e+02°)
